


                               __________________________________________
                              |                                          |
                              |  NUMERICAL ELECTROMAGNETICS CODE (nec2c) |
                              |   Translated to 'C' in Double Precision  |
                              |__________________________________________|



                               ---------------- COMMENTS ----------------
                               Long Wire Antenna — NEC2 Model (antenna H + counterpoise V)
                               Wire length: 13.3 m  |  Counterpoise (vertical): 5.0 m  |  Height: 5.0 m
                               Wire diameter: 1.0 mm  |  Conductivity: 5.80E+7 S/m
                               Frequency sweep: 7.00 – 14.50 MHz  step 0.50 MHz
                               Geometry: antenna horizontal (X-axis), counterpoise vertical drop from feedpoint
                               Generated by Long Wire Antenna Calculator – LU3VEA
                              



                               -------- STRUCTURE SPECIFICATION --------
                                     COORDINATES MUST BE INPUT IN
                                     METERS OR BE SCALED TO METERS
                                     BEFORE STRUCTURE INPUT IS ENDED

  WIRE                                                                                 SEG FIRST  LAST  TAG
   No:        X1         Y1         Z1         X2         Y2         Z2       RADIUS   No:   SEG   SEG  No:
     1    -6.65000    0.00000    5.00000    6.65000    0.00000    5.00000    0.00050    11     1    11    1
     2    -6.65000    0.00000    5.00000   -6.65000    0.00000    0.00010    0.00050     7    12    18    2

     GROUND PLANE SPECIFIED.
     WHERE WIRE ENDS TOUCH GROUND, CURRENT WILL BE INTERPOLATED TO IMAGE IN GROUND PLANE.


     TOTAL SEGMENTS USED: 18   SEGMENTS IN A SYMMETRIC CELL: 18   SYMMETRY FLAG: 0


                               ---------- SEGMENTATION DATA ----------
                                        COORDINATES IN METERS
                            I+ AND I- INDICATE THE SEGMENTS BEFORE AND AFTER I

   SEG    COORDINATES OF SEGM CENTER     SEGM    ORIENTATION ANGLES    WIRE    CONNECTION DATA   TAG
   No:       X         Y         Z      LENGTH     ALPHA      BETA    RADIUS    I-     I    I+   No:
     1   -6.0455    0.0000    5.0000    1.2091    0.0000    0.0000    0.0005   -12     1     2     1
     2   -4.8364    0.0000    5.0000    1.2091    0.0000    0.0000    0.0005     1     2     3     1
     3   -3.6273    0.0000    5.0000    1.2091    0.0000    0.0000    0.0005     2     3     4     1
     4   -2.4182    0.0000    5.0000    1.2091    0.0000    0.0000    0.0005     3     4     5     1
     5   -1.2091    0.0000    5.0000    1.2091    0.0000    0.0000    0.0005     4     5     6     1
     6   -0.0000    0.0000    5.0000    1.2091    0.0000    0.0000    0.0005     5     6     7     1
     7    1.2091    0.0000    5.0000    1.2091    0.0000    0.0000    0.0005     6     7     8     1
     8    2.4182    0.0000    5.0000    1.2091    0.0000    0.0000    0.0005     7     8     9     1
     9    3.6273    0.0000    5.0000    1.2091    0.0000    0.0000    0.0005     8     9    10     1
    10    4.8364    0.0000    5.0000    1.2091    0.0000    0.0000    0.0005     9    10    11     1
    11    6.0455    0.0000    5.0000    1.2091    0.0000    0.0000    0.0005    10    11     0     1
    12   -6.6500    0.0000    4.6429    0.7143  -90.0000    0.0000    0.0005    -1    12    13     2
    13   -6.6500    0.0000    3.9286    0.7143  -90.0000    0.0000    0.0005    12    13    14     2
    14   -6.6500    0.0000    3.2143    0.7143  -90.0000    0.0000    0.0005    13    14    15     2
    15   -6.6500    0.0000    2.5000    0.7143  -90.0000    0.0000    0.0005    14    15    16     2
    16   -6.6500    0.0000    1.7858    0.7143  -90.0000    0.0000    0.0005    15    16    17     2
    17   -6.6500    0.0000    1.0715    0.7143  -90.0000    0.0000    0.0005    16    17    18     2
    18   -6.6500    0.0000    0.3572    0.7144  -90.0000    0.0000    0.0005    17    18    18     2



  DATA CARD No:   1 LD   5     1     1    11  5.80000E+07  0.00000E+00  0.00000E+00  0.00000E+00  0.00000E+00  0.00000E+00
  DATA CARD No:   2 LD   5     2     1     7  5.80000E+07  0.00000E+00  0.00000E+00  0.00000E+00  0.00000E+00  0.00000E+00
  DATA CARD No:   3 EX   0     1     1     0  1.00000E+00  0.00000E+00  0.00000E+00  0.00000E+00  0.00000E+00  0.00000E+00
  DATA CARD No:   4 GN   2     0     0     0  1.30000E+01  5.00000E-03  0.00000E+00  0.00000E+00  0.00000E+00  0.00000E+00
  DATA CARD No:   5 FR   0    16     0     0  7.00000E+00  5.00000E-01  0.00000E+00  0.00000E+00  0.00000E+00  0.00000E+00
  DATA CARD No:   6 RP   0     1   361  1000  9.00000E+01  0.00000E+00  0.00000E+00  1.00000E+00  0.00000E+00  0.00000E+00


                               --------- FREQUENCY --------
                                FREQUENCY : 7.0000E+00 MHz
                                WAVELENGTH: 4.2829E+01 Mtr

                        APPROXIMATE INTEGRATION EMPLOYED FOR SEGMENTS 
                        THAT ARE MORE THAN 1.000 WAVELENGTHS APART


                          ------ STRUCTURE IMPEDANCE LOADING ------
  LOCATION        RESISTANCE  INDUCTANCE  CAPACITANCE     IMPEDANCE (OHMS)   CONDUCTIVITY  CIRCUIT
  ITAG FROM THRU     OHMS       HENRYS      FARADS       REAL     IMAGINARY   MHOS/METER      TYPE
     1    1   11                                                              5.8000E+07     WIRE  
     2    1    7                                                              5.8000E+07     WIRE  


                            -------- ANTENNA ENVIRONMENT --------
                            FINITE GROUND - SOMMERFELD SOLUTION
                            RELATIVE DIELECTRIC CONST: 13.000
                            CONDUCTIVITY:  5.000E-03 MHOS/METER
                            COMPLEX DIELECTRIC CONSTANT:  1.3000E+01-1.2840E+01j


                             ---------- MATRIX TIMING ----------
                               FILL: 0 msec  FACTOR: 0 msec


                        --------- ANTENNA INPUT PARAMETERS ---------
  TAG   SEG       VOLTAGE (VOLTS)         CURRENT (AMPS)         IMPEDANCE (OHMS)        ADMITTANCE (MHOS)     POWER
  No:   No:     REAL      IMAGINARY     REAL      IMAGINARY     REAL      IMAGINARY    REAL       IMAGINARY   (WATTS)
    1     1  1.0000E+00  0.0000E+00  6.3386E-04 -1.4498E-03  2.5316E+02  5.7905E+02  6.3386E-04 -1.4498E-03  3.1693E-04


                           -------- CURRENTS AND LOCATION --------
                                  DISTANCES IN WAVELENGTHS

   SEG  TAG    COORDINATES OF SEGM CENTER     SEGM    ------------- CURRENT (AMPS) -------------
   No:  No:       X         Y         Z      LENGTH     REAL      IMAGINARY    MAGN        PHASE
     1    1   -0.1412    0.0000    0.1167   0.02823  6.3386E-04 -1.4498E-03  1.5823E-03  -66.386
     2    1   -0.1129    0.0000    0.1167   0.02823  6.4474E-04 -1.5149E-03  1.6464E-03  -66.946
     3    1   -0.0847    0.0000    0.1167   0.02823  6.3801E-04 -1.5613E-03  1.6866E-03  -67.773
     4    1   -0.0565    0.0000    0.1167   0.02823  6.1382E-04 -1.5482E-03  1.6655E-03  -68.373
     5    1   -0.0282    0.0000    0.1167   0.02823  5.7282E-04 -1.4806E-03  1.5875E-03  -68.849
     6    1   -0.0000    0.0000    0.1167   0.02823  5.1616E-04 -1.3619E-03  1.4565E-03  -69.244
     7    1    0.0282    0.0000    0.1167   0.02823  4.4543E-04 -1.1964E-03  1.2767E-03  -69.580
     8    1    0.0565    0.0000    0.1167   0.02823  3.6251E-04 -9.8913E-04  1.0535E-03  -69.872
     9    1    0.0847    0.0000    0.1167   0.02823  2.6952E-04 -7.4581E-04  7.9302E-04  -70.131
    10    1    0.1129    0.0000    0.1167   0.02823  1.6845E-04 -4.7210E-04  5.0126E-04  -70.363
    11    1    0.1412    0.0000    0.1167   0.02823  5.9518E-05 -1.6876E-04  1.7895E-04  -70.573
    12    2   -0.1553    0.0000    0.1084   0.01668 -6.1300E-04  1.5814E-03  1.6961E-03  111.188
    13    2   -0.1553    0.0000    0.0917   0.01668 -5.9138E-04  1.6890E-03  1.7895E-03  109.297
    14    2   -0.1553    0.0000    0.0751   0.01668 -5.6486E-04  1.7737E-03  1.8615E-03  107.665
    15    2   -0.1553    0.0000    0.0584   0.01668 -5.3374E-04  1.8358E-03  1.9118E-03  106.211
    16    2   -0.1553    0.0000    0.0417   0.01668 -4.9840E-04  1.8753E-03  1.9404E-03  104.884
    17    2   -0.1553    0.0000    0.0250   0.01668 -4.5954E-04  1.8920E-03  1.9470E-03  103.652
    18    2   -0.1553    0.0000    0.0083   0.01668 -4.2387E-04  1.8897E-03  1.9367E-03  102.642


                               ---------- POWER BUDGET ---------
                               INPUT POWER   =  3.1693E-04 Watts
                               RADIATED POWER=  3.1246E-04 Watts
                               STRUCTURE LOSS=  4.4650E-06 Watts
                               NETWORK LOSS  =  0.0000E+00 Watts
                               EFFICIENCY    =   98.59 Percent


                             ---------- RADIATION PATTERNS -----------

 ---- ANGLES -----     ----- POWER GAINS -----       ---- POLARIZATION ----   ---- E(THETA) ----    ----- E(PHI) ------
  THETA      PHI       VERTC    HORIZ    TOTAL       AXIAL      TILT  SENSE   MAGNITUDE    PHASE    MAGNITUDE     PHASE
 DEGREES   DEGREES        DB       DB       DB       RATIO   DEGREES            VOLTS/M   DEGREES     VOLTS/M   DEGREES
   90.00      0.00   -999.99  -999.99  -999.99      0.0000      0.00         1.6127E-12    102.08  0.0000E+00      0.00
   90.00      1.00   -999.99  -999.99  -999.99      0.0000      0.00         1.6127E-12    102.10  9.8156E-15    -95.72
   90.00      2.00   -999.99  -999.99  -999.99      0.0000      0.00         1.6125E-12    102.13  1.9630E-14    -95.71
   90.00      3.00   -999.99  -999.99  -999.99      0.0000      0.00         1.6121E-12    102.19  2.9443E-14    -95.70
   90.00      4.00   -999.99  -999.99  -999.99      0.0000      0.00         1.6116E-12    102.27  3.9252E-14    -95.69
   90.00      5.00   -999.99  -999.99  -999.99      0.0000      0.00         1.6110E-12    102.37  4.9058E-14    -95.67
   90.00      6.00   -999.99  -999.99  -999.99      0.0000      0.00         1.6102E-12    102.50  5.8858E-14    -95.65
   90.00      7.00   -999.99  -999.99  -999.99      0.0000      0.00         1.6093E-12    102.64  6.8652E-14    -95.62
   90.00      8.00   -999.99  -999.99  -999.99      0.0000      0.00         1.6083E-12    102.82  7.8439E-14    -95.59
   90.00      9.00   -999.99  -999.99  -999.99      0.0000      0.00         1.6071E-12    103.01  8.8219E-14    -95.56
   90.00     10.00   -999.99  -999.99  -999.99      0.0000      0.00         1.6058E-12    103.23  9.7987E-14    -95.52
   90.00     11.00   -999.99  -999.99  -999.99      0.0000      0.00         1.6044E-12    103.47  1.0774E-13    -95.47
   90.00     12.00   -999.99  -999.99  -999.99      0.0000      0.00         1.6029E-12    103.73  1.1749E-13    -95.43
   90.00     13.00   -999.99  -999.99  -999.99      0.0000      0.00         1.6012E-12    104.02  1.2722E-13    -95.38
   90.00     14.00   -999.99  -999.99  -999.99      0.0000      0.00         1.5994E-12    104.33  1.3694E-13    -95.33
   90.00     15.00   -999.99  -999.99  -999.99      0.0000      0.00         1.5975E-12    104.66  1.4664E-13    -95.27
   90.00     16.00   -999.99  -999.99  -999.99      0.0000      0.00         1.5955E-12    105.02  1.5632E-13    -95.21
   90.00     17.00   -999.99  -999.99  -999.99      0.0000      0.00         1.5934E-12    105.39  1.6599E-13    -95.15
   90.00     18.00   -999.99  -999.99  -999.99      0.0000      0.00         1.5913E-12    105.80  1.7563E-13    -95.08
   90.00     19.00   -999.99  -999.99  -999.99      0.0000      0.00         1.5890E-12    106.22  1.8525E-13    -95.00
   90.00     20.00   -999.99  -999.99  -999.99      0.0000      0.00         1.5866E-12    106.67  1.9485E-13    -94.93
   90.00     21.00   -999.99  -999.99  -999.99      0.0000      0.00         1.5842E-12    107.14  2.0442E-13    -94.85
   90.00     22.00   -999.99  -999.99  -999.99      0.0000      0.00         1.5817E-12    107.64  2.1397E-13    -94.77
   90.00     23.00   -999.99  -999.99  -999.99      0.0000      0.00         1.5791E-12    108.16  2.2348E-13    -94.69
   90.00     24.00   -999.99  -999.99  -999.99      0.0000      0.00         1.5765E-12    108.70  2.3295E-13    -94.59
   90.00     25.00   -999.99  -999.99  -999.99      0.0000      0.00         1.5739E-12    109.26  2.4240E-13    -94.50
   90.00     26.00   -999.99  -999.99  -999.99      0.0000      0.00         1.5712E-12    109.85  2.5181E-13    -94.40
   90.00     27.00   -999.99  -999.99  -999.99      0.0000      0.00         1.5684E-12    110.46  2.6118E-13    -94.30
   90.00     28.00   -999.99  -999.99  -999.99      0.0000      0.00         1.5657E-12    111.10  2.7051E-13    -94.20
   90.00     29.00   -999.99  -999.99  -999.99      0.0000      0.00         1.5629E-12    111.76  2.7980E-13    -94.09
   90.00     30.00   -999.99  -999.99  -999.99      0.0000      0.00         1.5601E-12    112.44  2.8903E-13    -93.98
   90.00     31.00   -999.99  -999.99  -999.99      0.0000      0.00         1.5574E-12    113.14  2.9823E-13    -93.87
   90.00     32.00   -999.99  -999.99  -999.99      0.0000      0.00         1.5547E-12    113.87  3.0736E-13    -93.75
   90.00     33.00   -999.99  -999.99  -999.99      0.0000      0.00         1.5520E-12    114.62  3.1644E-13    -93.63
   90.00     34.00   -999.99  -999.99  -999.99      0.0000      0.00         1.5493E-12    115.40  3.2547E-13    -93.51
   90.00     35.00   -999.99  -999.99  -999.99      0.0000      0.00         1.5467E-12    116.19  3.3443E-13    -93.38
   90.00     36.00   -999.99  -999.99  -999.99      0.0000      0.00         1.5441E-12    117.01  3.4332E-13    -93.26
   90.00     37.00   -999.99  -999.99  -999.99      0.0000      0.00         1.5417E-12    117.85  3.5215E-13    -93.12
   90.00     38.00   -999.99  -999.99  -999.99      0.0000      0.00         1.5393E-12    118.72  3.6092E-13    -92.99
   90.00     39.00   -999.99  -999.99  -999.99      0.0000      0.00         1.5370E-12    119.60  3.6960E-13    -92.85
   90.00     40.00   -999.99  -999.99  -999.99      0.0000      0.00         1.5349E-12    120.51  3.7821E-13    -92.71
   90.00     41.00   -999.99  -999.99  -999.99      0.0000      0.00         1.5328E-12    121.44  3.8673E-13    -92.56
   90.00     42.00   -999.99  -999.99  -999.99      0.0000      0.00         1.5309E-12    122.39  3.9517E-13    -92.42
   90.00     43.00   -999.99  -999.99  -999.99      0.0000      0.00         1.5292E-12    123.36  4.0353E-13    -92.27
   90.00     44.00   -999.99  -999.99  -999.99      0.0000      0.00         1.5276E-12    124.35  4.1178E-13    -92.12
   90.00     45.00   -999.99  -999.99  -999.99      0.0000      0.00         1.5262E-12    125.36  4.1995E-13    -91.97
   90.00     46.00   -999.99  -999.99  -999.99      0.0000      0.00         1.5250E-12    126.39  4.2800E-13    -91.81
   90.00     47.00   -999.99  -999.99  -999.99      0.0000      0.00         1.5240E-12    127.44  4.3597E-13    -91.65
   90.00     48.00   -999.99  -999.99  -999.99      0.0000      0.00         1.5233E-12    128.51  4.4382E-13    -91.49
   90.00     49.00   -999.99  -999.99  -999.99      0.0000      0.00         1.5227E-12    129.59  4.5155E-13    -91.32
   90.00     50.00   -999.99  -999.99  -999.99      0.0000      0.00         1.5224E-12    130.69  4.5918E-13    -91.16
   90.00     51.00   -999.99  -999.99  -999.99      0.0000      0.00         1.5224E-12    131.81  4.6666E-13    -90.99
   90.00     52.00   -999.99  -999.99  -999.99      0.0000      0.00         1.5226E-12    132.95  4.7404E-13    -90.82
   90.00     53.00   -999.99  -999.99  -999.99      0.0000      0.00         1.5231E-12    134.10  4.8128E-13    -90.65
   90.00     54.00   -999.99  -999.99  -999.99      0.0000      0.00         1.5239E-12    135.27  4.8840E-13    -90.47
   90.00     55.00   -999.99  -999.99  -999.99      0.0000      0.00         1.5250E-12    136.45  4.9538E-13    -90.30
   90.00     56.00   -999.99  -999.99  -999.99      0.0000      0.00         1.5264E-12    137.64  5.0221E-13    -90.12
   90.00     57.00   -999.99  -999.99  -999.99      0.0000      0.00         1.5281E-12    138.84  5.0891E-13    -89.94
   90.00     58.00   -999.99  -999.99  -999.99      0.0000      0.00         1.5302E-12    140.06  5.1543E-13    -89.76
   90.00     59.00   -999.99  -999.99  -999.99      0.0000      0.00         1.5325E-12    141.29  5.2182E-13    -89.57
   90.00     60.00   -999.99  -999.99  -999.99      0.0000      0.00         1.5353E-12    142.52  5.2804E-13    -89.39
   90.00     61.00   -999.99  -999.99  -999.99      0.0000      0.00         1.5383E-12    143.77  5.3411E-13    -89.20
   90.00     62.00   -999.99  -999.99  -999.99      0.0000      0.00         1.5418E-12    145.02  5.4001E-13    -89.01
   90.00     63.00   -999.99  -999.99  -999.99      0.0000      0.00         1.5456E-12    146.28  5.4573E-13    -88.82
   90.00     64.00   -999.99  -999.99  -999.99      0.0000      0.00         1.5497E-12    147.54  5.5128E-13    -88.63
   90.00     65.00   -999.99  -999.99  -999.99      0.0000      0.00         1.5542E-12    148.81  5.5666E-13    -88.43
   90.00     66.00   -999.99  -999.99  -999.99      0.0000      0.00         1.5591E-12    150.09  5.6184E-13    -88.24
   90.00     67.00   -999.99  -999.99  -999.99      0.0000      0.00         1.5643E-12    151.36  5.6685E-13    -88.04
   90.00     68.00   -999.99  -999.99  -999.99      0.0000      0.00         1.5699E-12    152.64  5.7167E-13    -87.84
   90.00     69.00   -999.99  -999.99  -999.99      0.0000      0.00         1.5758E-12    153.92  5.7630E-13    -87.64
   90.00     70.00   -999.99  -999.99  -999.99      0.0000      0.00         1.5822E-12    155.20  5.8073E-13    -87.44
   90.00     71.00   -999.99  -999.99  -999.99      0.0000      0.00         1.5888E-12    156.48  5.8496E-13    -87.25
   90.00     72.00   -999.99  -999.99  -999.99      0.0000      0.00         1.5959E-12    157.76  5.8899E-13    -87.04
   90.00     73.00   -999.99  -999.99  -999.99      0.0000      0.00         1.6032E-12    159.04  5.9280E-13    -86.84
   90.00     74.00   -999.99  -999.99  -999.99      0.0000      0.00         1.6110E-12    160.31  5.9641E-13    -86.64
   90.00     75.00   -999.99  -999.99  -999.99      0.0000      0.00         1.6190E-12    161.58  5.9981E-13    -86.43
   90.00     76.00   -999.99  -999.99  -999.99      0.0000      0.00         1.6274E-12    162.84  6.0301E-13    -86.23
   90.00     77.00   -999.99  -999.99  -999.99      0.0000      0.00         1.6361E-12    164.10  6.0596E-13    -86.02
   90.00     78.00   -999.99  -999.99  -999.99      0.0000      0.00         1.6451E-12    165.35  6.0874E-13    -85.81
   90.00     79.00   -999.99  -999.99  -999.99      0.0000      0.00         1.6544E-12    166.60  6.1126E-13    -85.61
   90.00     80.00   -999.99  -999.99  -999.99      0.0000      0.00         1.6640E-12    167.84  6.1358E-13    -85.39
   90.00     81.00   -999.99  -999.99  -999.99      0.0000      0.00         1.6739E-12    169.07  6.1565E-13    -85.19
   90.00     82.00   -999.99  -999.99  -999.99      0.0000      0.00         1.6840E-12    170.29  6.1751E-13    -84.98
   90.00     83.00   -999.99  -999.99  -999.99      0.0000      0.00         1.6943E-12    171.50  6.1914E-13    -84.77
   90.00     84.00   -999.99  -999.99  -999.99      0.0000      0.00         1.7050E-12    172.70  6.2052E-13    -84.56
   90.00     85.00   -999.99  -999.99  -999.99      0.0000      0.00         1.7158E-12    173.89  6.2172E-13    -84.35
   90.00     86.00   -999.99  -999.99  -999.99      0.0000      0.00         1.7268E-12    175.07  6.2264E-13    -84.13
