


                               __________________________________________
                              |                                          |
                              |  NUMERICAL ELECTROMAGNETICS CODE (nec2c) |
                              |   Translated to 'C' in Double Precision  |
                              |__________________________________________|



                               ---------------- COMMENTS ----------------
                               Long Wire Antenna — NEC2 Model
                               Wire length: 13.3 m  |  Counterpoise: 10.0 m  |  Height: 5.0 m
                               Wire diameter: 1.0 mm  |  Conductivity: 5.80E+7 S/m
                               Frequency sweep: 7.00 – 14.50 MHz  step 0.50 MHz
                               Generated by Long Wire Antenna Calculator – LU3VEA
                              



                               -------- STRUCTURE SPECIFICATION --------
                                     COORDINATES MUST BE INPUT IN
                                     METERS OR BE SCALED TO METERS
                                     BEFORE STRUCTURE INPUT IS ENDED

  WIRE                                                                                 SEG FIRST  LAST  TAG
   No:        X1         Y1         Z1         X2         Y2         Z2       RADIUS   No:   SEG   SEG  No:
     1    -6.65000    0.00000    5.00000    6.65000    0.00000    5.00000    0.00050    11     1    11    1
     2   -16.61500    0.00000    5.00000   -6.65000    0.00000    5.00000    0.00050     7    12    18    2

     GROUND PLANE SPECIFIED.
     WHERE WIRE ENDS TOUCH GROUND, CURRENT WILL BE INTERPOLATED TO IMAGE IN GROUND PLANE.


     TOTAL SEGMENTS USED: 18   SEGMENTS IN A SYMMETRIC CELL: 18   SYMMETRY FLAG: 0


                               ---------- SEGMENTATION DATA ----------
                                        COORDINATES IN METERS
                            I+ AND I- INDICATE THE SEGMENTS BEFORE AND AFTER I

   SEG    COORDINATES OF SEGM CENTER     SEGM    ORIENTATION ANGLES    WIRE    CONNECTION DATA   TAG
   No:       X         Y         Z      LENGTH     ALPHA      BETA    RADIUS    I-     I    I+   No:
     1   -6.0455    0.0000    5.0000    1.2091    0.0000    0.0000    0.0005    18     1     2     1
     2   -4.8364    0.0000    5.0000    1.2091    0.0000    0.0000    0.0005     1     2     3     1
     3   -3.6273    0.0000    5.0000    1.2091    0.0000    0.0000    0.0005     2     3     4     1
     4   -2.4182    0.0000    5.0000    1.2091    0.0000    0.0000    0.0005     3     4     5     1
     5   -1.2091    0.0000    5.0000    1.2091    0.0000    0.0000    0.0005     4     5     6     1
     6   -0.0000    0.0000    5.0000    1.2091    0.0000    0.0000    0.0005     5     6     7     1
     7    1.2091    0.0000    5.0000    1.2091    0.0000    0.0000    0.0005     6     7     8     1
     8    2.4182    0.0000    5.0000    1.2091    0.0000    0.0000    0.0005     7     8     9     1
     9    3.6273    0.0000    5.0000    1.2091    0.0000    0.0000    0.0005     8     9    10     1
    10    4.8364    0.0000    5.0000    1.2091    0.0000    0.0000    0.0005     9    10    11     1
    11    6.0455    0.0000    5.0000    1.2091    0.0000    0.0000    0.0005    10    11     0     1
    12  -15.9032    0.0000    5.0000    1.4236    0.0000    0.0000    0.0005     0    12    13     2
    13  -14.4796    0.0000    5.0000    1.4236    0.0000    0.0000    0.0005    12    13    14     2
    14  -13.0561    0.0000    5.0000    1.4236    0.0000    0.0000    0.0005    13    14    15     2
    15  -11.6325    0.0000    5.0000    1.4236    0.0000    0.0000    0.0005    14    15    16     2
    16  -10.2089    0.0000    5.0000    1.4236    0.0000    0.0000    0.0005    15    16    17     2
    17   -8.7854    0.0000    5.0000    1.4236    0.0000    0.0000    0.0005    16    17    18     2
    18   -7.3618    0.0000    5.0000    1.4236    0.0000    0.0000    0.0005    17    18     1     2



  DATA CARD No:   1 LD   5     1     1    11  5.80000E+07  0.00000E+00  0.00000E+00  0.00000E+00  0.00000E+00  0.00000E+00
  DATA CARD No:   2 LD   5     2     1     7  5.80000E+07  0.00000E+00  0.00000E+00  0.00000E+00  0.00000E+00  0.00000E+00
  DATA CARD No:   3 EX   0     1     1     0  1.00000E+00  0.00000E+00  0.00000E+00  0.00000E+00  0.00000E+00  0.00000E+00
  DATA CARD No:   4 GN   2     0     0     0  1.30000E+01  5.00000E-03  0.00000E+00  0.00000E+00  0.00000E+00  0.00000E+00
  DATA CARD No:   5 FR   0    16     0     0  7.00000E+00  5.00000E-01  0.00000E+00  0.00000E+00  0.00000E+00  0.00000E+00
  DATA CARD No:   6 RP   0     1   361  1000  9.00000E+01  0.00000E+00  0.00000E+00  1.00000E+00  0.00000E+00  0.00000E+00


                               --------- FREQUENCY --------
                                FREQUENCY : 7.0000E+00 MHz
                                WAVELENGTH: 4.2829E+01 Mtr

                        APPROXIMATE INTEGRATION EMPLOYED FOR SEGMENTS 
                        THAT ARE MORE THAN 1.000 WAVELENGTHS APART


                          ------ STRUCTURE IMPEDANCE LOADING ------
  LOCATION        RESISTANCE  INDUCTANCE  CAPACITANCE     IMPEDANCE (OHMS)   CONDUCTIVITY  CIRCUIT
  ITAG FROM THRU     OHMS       HENRYS      FARADS       REAL     IMAGINARY   MHOS/METER      TYPE
     1    1   11                                                              5.8000E+07     WIRE  
     2    1    7                                                              5.8000E+07     WIRE  


                            -------- ANTENNA ENVIRONMENT --------
                            FINITE GROUND - SOMMERFELD SOLUTION
                            RELATIVE DIELECTRIC CONST: 13.000
                            CONDUCTIVITY:  5.000E-03 MHOS/METER
                            COMPLEX DIELECTRIC CONSTANT:  1.3000E+01-1.2840E+01j


                             ---------- MATRIX TIMING ----------
                               FILL: 0 msec  FACTOR: 0 msec


                        --------- ANTENNA INPUT PARAMETERS ---------
  TAG   SEG       VOLTAGE (VOLTS)         CURRENT (AMPS)         IMPEDANCE (OHMS)        ADMITTANCE (MHOS)     POWER
  No:   No:     REAL      IMAGINARY     REAL      IMAGINARY     REAL      IMAGINARY    REAL       IMAGINARY   (WATTS)
    1     1  1.0000E+00  0.0000E+00  1.3230E-03 -3.7988E-03  8.1761E+01  2.3477E+02  1.3230E-03 -3.7988E-03  6.6150E-04


                           -------- CURRENTS AND LOCATION --------
                                  DISTANCES IN WAVELENGTHS

   SEG  TAG    COORDINATES OF SEGM CENTER     SEGM    ------------- CURRENT (AMPS) -------------
   No:  No:       X         Y         Z      LENGTH     REAL      IMAGINARY    MAGN        PHASE
     1    1   -0.1412    0.0000    0.1167   0.02823  1.3230E-03 -3.7988E-03  4.0226E-03  -70.798
     2    1   -0.1129    0.0000    0.1167   0.02823  1.3360E-03 -3.9935E-03  4.2110E-03  -71.503
     3    1   -0.0847    0.0000    0.1167   0.02823  1.3139E-03 -4.0874E-03  4.2934E-03  -72.180
     4    1   -0.0565    0.0000    0.1167   0.02823  1.2574E-03 -4.0386E-03  4.2298E-03  -72.706
     5    1   -0.0282    0.0000    0.1167   0.02823  1.1682E-03 -3.8533E-03  4.0265E-03  -73.135
     6    1   -0.0000    0.0000    0.1167   0.02823  1.0485E-03 -3.5388E-03  3.6909E-03  -73.496
     7    1    0.0282    0.0000    0.1167   0.02823  9.0176E-04 -3.1050E-03  3.2333E-03  -73.806
     8    1    0.0565    0.0000    0.1167   0.02823  7.3171E-04 -2.5646E-03  2.6669E-03  -74.076
     9    1    0.0847    0.0000    0.1167   0.02823  5.4256E-04 -1.9323E-03  2.0070E-03  -74.316
    10    1    0.1129    0.0000    0.1167   0.02823  3.3828E-04 -1.2224E-03  1.2683E-03  -74.531
    11    1    0.1412    0.0000    0.1167   0.02823  1.1927E-04 -4.3673E-04  4.5272E-04  -74.726
    12    2   -0.3713    0.0000    0.1167   0.03324  1.3941E-04 -4.7425E-04  4.9432E-04  -73.619
    13    2   -0.3381    0.0000    0.1167   0.03324  3.9509E-04 -1.3230E-03  1.3807E-03  -73.372
    14    2   -0.3048    0.0000    0.1167   0.03324  6.3027E-04 -2.0734E-03  2.1671E-03  -73.092
    15    2   -0.2716    0.0000    0.1167   0.03324  8.4183E-04 -2.7144E-03  2.8419E-03  -72.769
    16    2   -0.2384    0.0000    0.1167   0.03324  1.0230E-03 -3.2227E-03  3.3811E-03  -72.389
    17    2   -0.2051    0.0000    0.1167   0.03324  1.1673E-03 -3.5768E-03  3.7625E-03  -71.925
    18    2   -0.1719    0.0000    0.1167   0.03324  1.2695E-03 -3.7567E-03  3.9654E-03  -71.329


                               ---------- POWER BUDGET ---------
                               INPUT POWER   =  6.6150E-04 Watts
                               RADIATED POWER=  6.3630E-04 Watts
                               STRUCTURE LOSS=  2.5205E-05 Watts
                               NETWORK LOSS  =  0.0000E+00 Watts
                               EFFICIENCY    =   96.19 Percent


                             ---------- RADIATION PATTERNS -----------

 ---- ANGLES -----     ----- POWER GAINS -----       ---- POLARIZATION ----   ---- E(THETA) ----    ----- E(PHI) ------
  THETA      PHI       VERTC    HORIZ    TOTAL       AXIAL      TILT  SENSE   MAGNITUDE    PHASE    MAGNITUDE     PHASE
 DEGREES   DEGREES        DB       DB       DB       RATIO   DEGREES            VOLTS/M   DEGREES     VOLTS/M   DEGREES
   90.00      0.00   -999.99  -999.99  -999.99      0.0000      0.00         2.2223E-12    -22.84  0.0000E+00      0.00
   90.00      1.00   -999.99  -999.99  -999.99      0.0000      0.00         2.2222E-12    -22.83  3.3240E-14   -127.63
   90.00      2.00   -999.99  -999.99  -999.99      0.0000      0.00         2.2218E-12    -22.82  6.6486E-14   -127.61
   90.00      3.00   -999.99  -999.99  -999.99      0.0000      0.00         2.2212E-12    -22.79  9.9753E-14   -127.58
   90.00      4.00   -999.99  -999.99  -999.99      0.0000      0.00         2.2203E-12    -22.74  1.3304E-13   -127.54
   90.00      5.00   -999.99  -999.99  -999.99      0.0000      0.00         2.2192E-12    -22.69  1.6637E-13   -127.48
   90.00      6.00   -999.99  -999.99  -999.99      0.0000      0.00         2.2178E-12    -22.62  1.9974E-13   -127.42
   90.00      7.00   -999.99  -999.99  -999.99      0.0000      0.00         2.2161E-12    -22.55  2.3317E-13   -127.34
   90.00      8.00   -999.99  -999.99  -999.99      0.0000      0.00         2.2142E-12    -22.46  2.6665E-13   -127.25
   90.00      9.00   -999.99  -999.99  -999.99      0.0000      0.00         2.2120E-12    -22.35  3.0022E-13   -127.15
   90.00     10.00   -999.99  -999.99  -999.99      0.0000      0.00         2.2095E-12    -22.24  3.3385E-13   -127.03
   90.00     11.00   -999.99  -999.99  -999.99      0.0000      0.00         2.2067E-12    -22.12  3.6756E-13   -126.91
   90.00     12.00   -999.99  -999.99  -999.99      0.0000      0.00         2.2036E-12    -21.98  4.0138E-13   -126.77
   90.00     13.00   -999.99  -999.99  -999.99      0.0000      0.00         2.2002E-12    -21.83  4.3527E-13   -126.62
   90.00     14.00   -999.99  -999.99  -999.99      0.0000      0.00         2.1964E-12    -21.67  4.6930E-13   -126.46
   90.00     15.00   -999.99  -999.99  -999.99      0.0000      0.00         2.1924E-12    -21.50  5.0341E-13   -126.29
   90.00     16.00   -999.99  -999.99  -999.99      0.0000      0.00         2.1880E-12    -21.31  5.3761E-13   -126.10
   90.00     17.00   -999.99  -999.99  -999.99      0.0000      0.00         2.1832E-12    -21.11  5.7196E-13   -125.91
   90.00     18.00   -999.99  -999.99  -999.99      0.0000      0.00         2.1780E-12    -20.91  6.0645E-13   -125.70
   90.00     19.00   -999.99  -999.99  -999.99      0.0000      0.00         2.1724E-12    -20.69  6.4100E-13   -125.48
   90.00     20.00   -999.99  -999.99  -999.99      0.0000      0.00         2.1665E-12    -20.46  6.7574E-13   -125.25
   90.00     21.00   -999.99  -999.99  -999.99      0.0000      0.00         2.1601E-12    -20.22  7.1052E-13   -125.01
   90.00     22.00   -999.99  -999.99  -999.99      0.0000      0.00         2.1533E-12    -19.96  7.4548E-13   -124.75
   90.00     23.00   -999.99  -999.99  -999.99      0.0000      0.00         2.1460E-12    -19.70  7.8060E-13   -124.49
   90.00     24.00   -999.99  -999.99  -999.99      0.0000      0.00         2.1382E-12    -19.42  8.1576E-13   -124.21
   90.00     25.00   -999.99  -999.99  -999.99      0.0000      0.00         2.1300E-12    -19.13  8.5112E-13   -123.93
   90.00     26.00   -999.99  -999.99  -999.99      0.0000      0.00         2.1212E-12    -18.84  8.8660E-13   -123.63
   90.00     27.00   -999.99  -999.99  -999.99      0.0000      0.00         2.1120E-12    -18.53  9.2212E-13   -123.32
   90.00     28.00   -999.99  -999.99  -999.99      0.0000      0.00         2.1021E-12    -18.21  9.5778E-13   -123.00
   90.00     29.00   -999.99  -999.99  -999.99      0.0000      0.00         2.0917E-12    -17.88  9.9357E-13   -122.67
   90.00     30.00   -999.99  -999.99  -999.99      0.0000      0.00         2.0808E-12    -17.54  1.0294E-12   -122.33
   90.00     31.00   -999.99  -999.99  -999.99      0.0000      0.00         2.0692E-12    -17.18  1.0654E-12   -121.97
   90.00     32.00   -999.99  -999.99  -999.99      0.0000      0.00         2.0570E-12    -16.82  1.1014E-12   -121.61
   90.00     33.00   -999.99  -999.99  -999.99      0.0000      0.00         2.0441E-12    -16.45  1.1376E-12   -121.24
   90.00     34.00   -999.99  -999.99  -999.99      0.0000      0.00         2.0306E-12    -16.06  1.1737E-12   -120.86
   90.00     35.00   -999.99  -999.99  -999.99      0.0000      0.00         2.0164E-12    -15.67  1.2099E-12   -120.46
   90.00     36.00   -999.99  -999.99  -999.99      0.0000      0.00         2.0015E-12    -15.27  1.2461E-12   -120.06
   90.00     37.00   -999.99  -999.99  -999.99      0.0000      0.00         1.9859E-12    -14.85  1.2824E-12   -119.64
   90.00     38.00   -999.99  -999.99  -999.99      0.0000      0.00         1.9696E-12    -14.43  1.3186E-12   -119.22
   90.00     39.00   -999.99  -999.99  -999.99      0.0000      0.00         1.9525E-12    -14.00  1.3549E-12   -118.79
   90.00     40.00   -999.99  -999.99  -999.99      0.0000      0.00         1.9346E-12    -13.55  1.3911E-12   -118.35
   90.00     41.00   -999.99  -999.99  -999.99      0.0000      0.00         1.9160E-12    -13.10  1.4272E-12   -117.89
   90.00     42.00   -999.99  -999.99  -999.99      0.0000      0.00         1.8965E-12    -12.64  1.4633E-12   -117.43
   90.00     43.00   -999.99  -999.99  -999.99      0.0000      0.00         1.8762E-12    -12.17  1.4993E-12   -116.96
   90.00     44.00   -999.99  -999.99  -999.99      0.0000      0.00         1.8551E-12    -11.68  1.5352E-12   -116.48
   90.00     45.00   -999.99  -999.99  -999.99      0.0000      0.00         1.8331E-12    -11.20  1.5709E-12   -115.99
   90.00     46.00   -999.99  -999.99  -999.99      0.0000      0.00         1.8103E-12    -10.70  1.6064E-12   -115.49
   90.00     47.00   -999.99  -999.99  -999.99      0.0000      0.00         1.7866E-12    -10.19  1.6418E-12   -114.98
   90.00     48.00   -999.99  -999.99  -999.99      0.0000      0.00         1.7620E-12     -9.67  1.6771E-12   -114.47
   90.00     49.00   -999.99  -999.99  -999.99      0.0000      0.00         1.7366E-12     -9.15  1.7119E-12   -113.94
   90.00     50.00   -999.99  -999.99  -999.99      0.0000      0.00         1.7102E-12     -8.62  1.7465E-12   -113.41
   90.00     51.00   -999.99  -999.99  -999.99      0.0000      0.00         1.6829E-12     -8.08  1.7809E-12   -112.87
   90.00     52.00   -999.99  -999.99  -999.99      0.0000      0.00         1.6547E-12     -7.53  1.8149E-12   -112.32
   90.00     53.00   -999.99  -999.99  -999.99      0.0000      0.00         1.6256E-12     -6.97  1.8486E-12   -111.76
   90.00     54.00   -999.99  -999.99  -999.99      0.0000      0.00         1.5955E-12     -6.41  1.8819E-12   -111.20
   90.00     55.00   -999.99  -999.99  -999.99      0.0000      0.00         1.5646E-12     -5.84  1.9147E-12   -110.63
   90.00     56.00   -999.99  -999.99  -999.99      0.0000      0.00         1.5327E-12     -5.26  1.9471E-12   -110.05
   90.00     57.00   -999.99  -999.99  -999.99      0.0000      0.00         1.4998E-12     -4.67  1.9791E-12   -109.47
   90.00     58.00   -999.99  -999.99  -999.99      0.0000      0.00         1.4661E-12     -4.08  2.0105E-12   -108.87
   90.00     59.00   -999.99  -999.99  -999.99      0.0000      0.00         1.4314E-12     -3.48  2.0414E-12   -108.27
   90.00     60.00   -999.99  -999.99  -999.99      0.0000      0.00         1.3958E-12     -2.87  2.0717E-12   -107.66
   90.00     61.00   -999.99  -999.99  -999.99      0.0000      0.00         1.3593E-12     -2.26  2.1014E-12   -107.05
   90.00     62.00   -999.99  -999.99  -999.99      0.0000      0.00         1.3219E-12     -1.64  2.1305E-12   -106.43
   90.00     63.00   -999.99  -999.99  -999.99      0.0000      0.00         1.2836E-12     -1.02  2.1589E-12   -105.81
   90.00     64.00   -999.99  -999.99  -999.99      0.0000      0.00         1.2445E-12     -0.39  2.1865E-12   -105.18
   90.00     65.00   -999.99  -999.99  -999.99      0.0000      0.00         1.2045E-12      0.25  2.2135E-12   -104.54
   90.00     66.00   -999.99  -999.99  -999.99      0.0000      0.00         1.1636E-12      0.89  2.2396E-12   -103.90
   90.00     67.00   -999.99  -999.99  -999.99      0.0000      0.00         1.1220E-12      1.54  2.2650E-12   -103.25
   90.00     68.00   -999.99  -999.99  -999.99      0.0000      0.00         1.0795E-12      2.19  2.2895E-12   -102.60
   90.00     69.00   -999.99  -999.99  -999.99      0.0000      0.00         1.0362E-12      2.85  2.3132E-12   -101.94
   90.00     70.00   -999.99  -999.99  -999.99      0.0000      0.00         9.9218E-13      3.51  2.3360E-12   -101.28
   90.00     71.00   -999.99  -999.99  -999.99      0.0000      0.00         9.4742E-13      4.17  2.3578E-12   -100.62
   90.00     72.00   -999.99  -999.99  -999.99      0.0000      0.00         9.0194E-13      4.84  2.3787E-12    -99.95
   90.00     73.00   -999.99  -999.99  -999.99      0.0000      0.00         8.5578E-13      5.52  2.3986E-12    -99.27
   90.00     74.00   -999.99  -999.99  -999.99      0.0000      0.00         8.0897E-13      6.20  2.4176E-12    -98.60
   90.00     75.00   -999.99  -999.99  -999.99      0.0000      0.00         7.6154E-13      6.88  2.4354E-12    -97.92
   90.00     76.00   -999.99  -999.99  -999.99      0.0000      0.00         7.1351E-13      7.56  2.4523E-12    -97.23
   90.00     77.00   -999.99  -999.99  -999.99      0.0000      0.00         6.6493E-13      8.25  2.4680E-12    -96.54
   90.00     78.00   -999.99  -999.99  -999.99      0.0000      0.00         6.1582E-13      8.94  2.4827E-12    -95.85
   90.00     79.00   -999.99  -999.99  -999.99      0.0000      0.00         5.6623E-13      9.63  2.4962E-12    -95.16
   90.00     80.00   -999.99  -999.99  -999.99      0.0000      0.00         5.1619E-13     10.33  2.5086E-12    -94.46
   90.00     81.00   -999.99  -999.99  -999.99      0.0000      0.00         4.6574E-13     11.03  2.5199E-12    -93.76
   90.00     82.00   -999.99  -999.99  -999.99      0.0000      0.00         4.1493E-13     11.73  2.5299E-12    -93.06
   90.00     83.00   -999.99  -999.99  -999.99      0.0000      0.00         3.6378E-13     12.43  2.5388E-12    -92.36
   90.00     84.00   -999.99  -999.99  -999.99      0.0000      0.00         3.1234E-13     13.14  2.5465E-12    -91.66
   90.00     85.00   -999.99  -999.99  -999.99      0.0000      0.00         2.6065E-13     13.84  2.5530E-12    -90.95
   90.00     86.00   -999.99  -999.99  -999.99      0.0000      0.00         2.0876E-13     14.55  2.5582E-12    -90.24
   90.00     87.00   -999.99  -999.99  -999.99      0.0000      0.00         1.5670E-13     15.26  2.5623E-12    -89.53
